Title: ** sch_path: /foss/designs/nmos1.sch
Date: Sat Jul 26 16:31:26  2025
Command: ngspice-44.2, Build Wed Jun 18 20:01:03 UTC 2025
Plotname: DC transfer characteristic
Flags: real
No. Variables: 5
No. Points: 12
Variables:
	0	v(v-sweep)	voltage
	1	v(net1)	voltage
	2	v(net2)	voltage
	3	i(v1)	current
	4	i(v2)	current
Values:
 0	0.000000000000000e+00
	1.500000000000000e+00
	0.000000000000000e+00
	-1.664834936576653e-12
	0.000000000000000e+00

 1	3.000000000000000e-01
	1.500000000000000e+00
	3.000000000000000e-01
	-6.660723639306809e-10
	0.000000000000000e+00

 2	6.000000000000001e-01
	1.500000000000000e+00
	6.000000000000001e-01
	-5.945468204426874e-07
	0.000000000000000e+00

 3	9.000000000000001e-01
	1.500000000000000e+00
	9.000000000000001e-01
	-7.629495401284547e-06
	0.000000000000000e+00

 4	1.200000000000000e+00
	1.500000000000000e+00
	1.200000000000000e+00
	-2.003729800581500e-05
	0.000000000000000e+00

 5	1.500000000000000e+00
	1.500000000000000e+00
	1.500000000000000e+00
	-3.466696581794215e-05
	0.000000000000000e+00

 6	1.800000000000000e+00
	1.500000000000000e+00
	1.800000000000000e+00
	-5.031395642451919e-05
	0.000000000000000e+00

 7	2.100000000000001e+00
	1.500000000000000e+00
	2.100000000000001e+00
	-6.641925853351216e-05
	0.000000000000000e+00

 8	2.400000000000000e+00
	1.500000000000000e+00
	2.400000000000000e+00
	-8.267423290136966e-05
	0.000000000000000e+00

 9	2.700000000000000e+00
	1.500000000000000e+00
	2.700000000000000e+00
	-9.887654832768655e-05
	0.000000000000000e+00

 10	3.000000000000000e+00
	1.500000000000000e+00
	3.000000000000000e+00
	-1.148619635023551e-04
	0.000000000000000e+00

 11	3.300000000000000e+00
	1.500000000000000e+00
	3.300000000000000e+00
	-1.304627380542267e-04
	0.000000000000000e+00

